
T2534 000:303 SEGGER J-Link V4.96d Log File (0001ms, 0265ms total)
T2534 000:303 DLL Compiled: Jan 29 2015 11:45:37 (0001ms, 0265ms total)
T2534 000:303 Logging started @ 2021-12-22 20:46 (0001ms, 0265ms total)
T2534 000:305 JLINK_SetWarnOutHandler(...) (0000ms, 0266ms total)
T2534 000:305 JLINK_OpenEx(...)
Firmware: J-Link ARM-OB STM32 compiled Aug 22 2012 19:52:04
Hardware: V7.00
S/N: 20090928
Feature(s): RDI,FlashDL,FlashBP,JFlash,GDBFull  returns O.K. (0261ms, 0527ms total)
T2534 000:566 JLINK_SetErrorOutHandler(...) (0000ms, 0527ms total)
T2534 000:566 JLINK_ExecCommand("ProjectFile = "C:\Users\Lee Young\Desktop\平衡三棱锥项目\源码\TRG_V2.0\USER\JLinkSettings.ini"", ...)  returns 0x00 (0001ms, 0528ms total)
T2534 000:574 JLINK_ExecCommand("Device = STM32F103C6", ...)Device "STM32F103C6" selected.  returns 0x00 (0008ms, 0536ms total)
T2534 000:582 JLINK_ExecCommand("DisableConnectionTimeout", ...)  returns 0x01 (0000ms, 0536ms total)
T2534 000:582 JLINK_GetHardwareVersion()  returns 0x11170 (0000ms, 0536ms total)
T2534 000:582 JLINK_GetDLLVersion()  returns 49604 (0000ms, 0536ms total)
T2534 000:582 JLINK_GetFirmwareString(...) (0000ms, 0536ms total)
T2534 000:607 JLINK_GetDLLVersion()  returns 49604 (0000ms, 0536ms total)
T2534 000:607 JLINK_GetCompileDateTime() (0000ms, 0536ms total)
T2534 000:612 JLINK_GetFirmwareString(...) (0000ms, 0536ms total)
T2534 000:621 JLINK_GetHardwareVersion()  returns 0x11170 (0000ms, 0536ms total)
T2534 000:644 JLINK_TIF_Select(JLINKARM_TIF_SWD)  returns 0x00 (0002ms, 0538ms total)
T2534 000:646 JLINK_SetSpeed(2000) (0000ms, 0538ms total)
T2534 000:646 JLINK_GetId() >0x108 TIF>Found SWD-DP with ID 0x1BA01477 >0x0D TIF> >0x28 TIF> >0x0D TIF> >0x28 TIF> >0x0D TIF> >0x21 TIF> >0x0D TIF> >0x28 TIF> >0x0D TIF> >0x28 TIF> >0x0D TIF> >0x28 TIF> >0x0D TIF> >0x21 TIF> >0x0D TIF> >0x21 TIF> >0x0D TIF> >0x28 TIF> >0x0D TIF> >0x21 TIF> >0x0D TIF> >0x21 TIF> >0x108 TIF>Found SWD-DP with ID 0x1BA01477 >0x0D TIF> >0x21 TIF> >0x0D TIF> >0x28 TIF> >0x0D TIF> >0x28 TIF> >0x0D TIF> >0x21 TIF> >0x0D TIF> >0x28 TIF> >0x0D TIF> >0x21 TIF> >0x0D TIF> >0x21 TIF>
 >0x0D TIF> >0x21 TIF> >0x0D TIF> >0x21 TIF> >0x0D TIF> >0x28 TIF> >0x0D TIF> >0x28 TIF> >0x0D TIF> >0x21 TIF> >0x0D TIF> >0x28 TIF> >0x0D TIF> >0x28 TIF> >0x0D TIF> >0x28 TIF> >0x0D TIF> >0x21 TIF> >0x0D TIF> >0x21 TIF> >0x0D TIF> >0x28 TIF> >0x0D TIF> >0x21 TIF> >0x0D TIF> >0x21 TIF>Found Cortex-M3 r1p1, Little endian. -- CPU_WriteMem(4 bytes @ 0xE0002000) -- CPU_ReadMem(4 bytes @ 0xE000EDF0) -- CPU_ReadMem(4 bytes @ 0xE0002000)FPUnit: 6 code (BP) slots and 2 literal slots
 -- CPU_ReadMem(4 bytes @ 0xE000EDFC) -- CPU_ReadMem(4 bytes @ 0xE0001000) -- CPU_WriteMem(4 bytes @ 0xE0001000) -- CPU_ReadMem(4 bytes @ 0xE000ED88) -- CPU_WriteMem(4 bytes @ 0xE000ED88) -- CPU_ReadMem(4 bytes @ 0xE000ED88) -- CPU_WriteMem(4 bytes @ 0xE000ED88) -- CPU_ReadMem(4 bytes @ 0xE00FF010)TPIU fitted. -- CPU_ReadMem(4 bytes @ 0xE00FF014) -- CPU_ReadMem(4 bytes @ 0xE00FF018) >0x0D TIF> >0x21 TIF>  returns 0x1BA01477 (0045ms, 0583ms total)
T2534 000:691 JLINK_GetDLLVersion()  returns 49604 (0000ms, 0583ms total)
T2534 000:691 JLINK_CORE_GetFound()  returns 0x30000FF (0000ms, 0583ms total)
T2534 000:691 JLINK_GetDebugInfo(0x100) -- Value=0xE00FF003  returns 0x00 (0000ms, 0583ms total)
T2534 000:694 JLINK_ReadMem (0xE00FF000, 0x0020 Bytes, ...) -- CPU is running -- CPU_ReadMem(32 bytes @ 0xE00FF000) - Data: 03 F0 F0 FF 03 20 F0 FF 03 30 F0 FF 03 10 F0 FF ...  returns 0x00 (0001ms, 0584ms total)
T2534 000:695 JLINK_ReadMem (0xE000EFF0, 0x0010 Bytes, ...) -- CPU is running -- CPU_ReadMem(16 bytes @ 0xE000EFF0) - Data: 0D 00 00 00 E0 00 00 00 05 00 00 00 B1 00 00 00  returns 0x00 (0001ms, 0585ms total)
T2534 000:696 JLINK_ReadMem (0xE000EFD0, 0x0020 Bytes, ...) -- CPU is running -- CPU_ReadMem(32 bytes @ 0xE000EFD0) - Data: 04 00 00 00 00 00 00 00 00 00 00 00 00 00 00 00 ...  returns 0x00 (0001ms, 0586ms total)
T2534 000:697 JLINK_ReadMem (0xE0001FF0, 0x0010 Bytes, ...) -- CPU is running -- CPU_ReadMem(16 bytes @ 0xE0001FF0) - Data: 0D 00 00 00 E0 00 00 00 05 00 00 00 B1 00 00 00  returns 0x00 (0001ms, 0587ms total)
T2534 000:698 JLINK_ReadMem (0xE0001FD0, 0x0020 Bytes, ...) -- CPU is running -- CPU_ReadMem(32 bytes @ 0xE0001FD0) - Data: 04 00 00 00 00 00 00 00 00 00 00 00 00 00 00 00 ...  returns 0x00 (0001ms, 0588ms total)
T2534 000:699 JLINK_ReadMem (0xE0002FF0, 0x0010 Bytes, ...) -- CPU is running -- CPU_ReadMem(16 bytes @ 0xE0002FF0) - Data: 0D 00 00 00 E0 00 00 00 05 00 00 00 B1 00 00 00  returns 0x00 (0000ms, 0588ms total)
T2534 000:699 JLINK_ReadMem (0xE0002FD0, 0x0020 Bytes, ...) -- CPU is running -- CPU_ReadMem(32 bytes @ 0xE0002FD0) - Data: 04 00 00 00 00 00 00 00 00 00 00 00 00 00 00 00 ...  returns 0x00 (0001ms, 0589ms total)
T2534 000:700 JLINK_ReadMem (0xE0000FF0, 0x0010 Bytes, ...) -- CPU is running -- CPU_ReadMem(16 bytes @ 0xE0000FF0) - Data: 0D 00 00 00 E0 00 00 00 05 00 00 00 B1 00 00 00  returns 0x00 (0001ms, 0590ms total)
T2534 000:701 JLINK_ReadMem (0xE0000FD0, 0x0020 Bytes, ...) -- CPU is running -- CPU_ReadMem(32 bytes @ 0xE0000FD0) - Data: 04 00 00 00 00 00 00 00 00 00 00 00 00 00 00 00 ...  returns 0x00 (0001ms, 0591ms total)
T2534 000:702 JLINK_ReadMem (0xE0040FF0, 0x0010 Bytes, ...) -- CPU is running -- CPU_ReadMem(16 bytes @ 0xE0040FF0) - Data: 0D 00 00 00 90 00 00 00 05 00 00 00 B1 00 00 00  returns 0x00 (0001ms, 0592ms total)
T2534 000:703 JLINK_ReadMem (0xE0040FD0, 0x0020 Bytes, ...) -- CPU is running -- CPU_ReadMem(32 bytes @ 0xE0040FD0) - Data: 04 00 00 00 00 00 00 00 00 00 00 00 00 00 00 00 ...  returns 0x00 (0001ms, 0593ms total)
T2534 000:704 JLINK_ReadMemU32(0xE000ED00, 0x0001 Items, ...) -- CPU is running -- CPU_ReadMem(4 bytes @ 0xE000ED00) - Data: 31 C2 1F 41  returns 0x01 (0001ms, 0594ms total)
T2534 000:705 JLINK_SetResetType(JLINKARM_RESET_TYPE_NORMAL)  returns JLINKARM_RESET_TYPE_NORMAL (0000ms, 0594ms total)
T2534 000:705 JLINK_Reset() -- CPU is running -- CPU_WriteMem(4 bytes @ 0xE000EDF0) -- CPU is running -- CPU_WriteMem(4 bytes @ 0xE000EDFC) >0x35 TIF> -- CPU is running -- CPU_WriteMem(4 bytes @ 0xE000ED0C) -- CPU is running -- CPU_ReadMem(4 bytes @ 0xE000EDF0) -- CPU is running -- CPU_ReadMem(4 bytes @ 0xE000EDF0) -- CPU is running -- CPU_WriteMem(4 bytes @ 0xE000EDF0) -- CPU is running -- CPU_WriteMem(4 bytes @ 0xE000EDFC) -- CPU is running -- CPU_ReadMem(4 bytes @ 0xE000EDF0)
 -- CPU_WriteMem(4 bytes @ 0xE0002000) -- CPU_ReadMem(4 bytes @ 0xE000EDFC) -- CPU_ReadMem(4 bytes @ 0xE0001000) (0019ms, 0613ms total)
T2534 000:724 JLINK_Halt()  returns 0x00 (0000ms, 0613ms total)
T2534 000:724 JLINK_IsHalted()  returns TRUE (0000ms, 0613ms total)
T2534 000:724 JLINK_ReadMemU32(0xE000EDF0, 0x0001 Items, ...) -- CPU_ReadMem(4 bytes @ 0xE000EDF0) - Data: 03 00 03 00  returns 0x01 (0001ms, 0614ms total)
T2534 000:725 JLINK_WriteU32(0xE000EDF0, 0xA05F0003) -- CPU_WriteMem(4 bytes @ 0xE000EDF0)  returns 0x00 (0001ms, 0615ms total)
T2534 000:726 JLINK_WriteU32(0xE000EDFC, 0x01000000) -- CPU_WriteMem(4 bytes @ 0xE000EDFC)  returns 0x00 (0001ms, 0616ms total)
T2534 000:742 JLINK_GetHWStatus(...)  returns 0x00 (0001ms, 0617ms total)
T2534 000:754 JLINK_GetNumBPUnits(Type = 0xFFFFFF00)  returns 0x06 (0000ms, 0617ms total)
T2534 000:754 JLINK_GetNumBPUnits(Type = 0xF0)  returns 0x2000 (0000ms, 0617ms total)
T2534 000:754 JLINK_GetNumWPUnits()  returns 0x04 (0000ms, 0617ms total)
T2534 000:764 JLINK_GetSpeed()  returns 0x7D0 (0000ms, 0617ms total)
T2534 000:771 JLINK_ReadMemU32(0xE000E004, 0x0001 Items, ...) -- CPU_ReadMem(4 bytes @ 0xE000E004) - Data: 01 00 00 00  returns 0x01 (0001ms, 0618ms total)
T2534 000:772 JLINK_ReadMemU32(0xE000E004, 0x0001 Items, ...) -- CPU_ReadMem(4 bytes @ 0xE000E004) - Data: 01 00 00 00  returns 0x01 (0000ms, 0618ms total)
T2534 000:772 JLINK_WriteMem(0xE0001000, 0x001C Bytes, ...) - Data: 01 00 00 00 00 00 00 00 00 00 00 00 00 00 00 00 ... -- CPU_WriteMem(28 bytes @ 0xE0001000)  returns 0x1C (0002ms, 0620ms total)
T2534 000:774 JLINK_ReadMem (0xE0001000, 0x001C Bytes, ...) -- CPU_ReadMem(28 bytes @ 0xE0001000) - Data: 01 00 00 40 00 00 00 00 00 00 00 00 00 00 00 00 ...  returns 0x00 (0001ms, 0621ms total)
T2534 000:775 JLINK_Halt()  returns 0x00 (0000ms, 0621ms total)
T2534 000:775 JLINK_IsHalted()  returns TRUE (0000ms, 0621ms total)
T2534 000:780 JLINK_WriteMem(0x20000000, 0x0164 Bytes, ...) - Data: 00 BE 0A E0 0D 78 2D 06 68 40 08 24 40 00 00 D3 ... -- CPU_WriteMem(356 bytes @ 0x20000000)  returns 0x164 (0004ms, 0625ms total)
T2534 000:784 JLINK_WriteReg(R0, 0x08000000)  returns 0x00 (0000ms, 0625ms total)
T2534 000:784 JLINK_WriteReg(R1, 0x00B71B00)  returns 0x00 (0000ms, 0625ms total)
T2534 000:784 JLINK_WriteReg(R2, 0x00000001)  returns 0x00 (0000ms, 0625ms total)
T2534 000:784 JLINK_WriteReg(R3, 0x00000000)  returns 0x00 (0000ms, 0625ms total)
T2534 000:784 JLINK_WriteReg(R4, 0x00000000)  returns 0x00 (0000ms, 0625ms total)
T2534 000:784 JLINK_WriteReg(R5, 0x00000000)  returns 0x00 (0000ms, 0625ms total)
T2534 000:784 JLINK_WriteReg(R6, 0x00000000)  returns 0x00 (0000ms, 0625ms total)
T2534 000:784 JLINK_WriteReg(R7, 0x00000000)  returns 0x00 (0000ms, 0625ms total)
T2534 000:784 JLINK_WriteReg(R8, 0x00000000)  returns 0x00 (0000ms, 0625ms total)
T2534 000:784 JLINK_WriteReg(R9, 0x20000160)  returns 0x00 (0002ms, 0627ms total)
T2534 000:786 JLINK_WriteReg(R10, 0x00000000)  returns 0x00 (0000ms, 0627ms total)
T2534 000:786 JLINK_WriteReg(R11, 0x00000000)  returns 0x00 (0000ms, 0627ms total)
T2534 000:786 JLINK_WriteReg(R12, 0x00000000)  returns 0x00 (0000ms, 0627ms total)
T2534 000:786 JLINK_WriteReg(R13 (SP), 0x20001000)  returns 0x00 (0000ms, 0627ms total)
T2534 000:786 JLINK_WriteReg(R14, 0x20000001)  returns 0x00 (0000ms, 0627ms total)
T2534 000:786 JLINK_WriteReg(R15 (PC), 0x20000038)  returns 0x00 (0000ms, 0627ms total)
T2534 000:786 JLINK_WriteReg(XPSR, 0x01000000)  returns 0x00 (0000ms, 0627ms total)
T2534 000:786 JLINK_WriteReg(MSP, 0x20001000)  returns 0x00 (0000ms, 0627ms total)
T2534 000:786 JLINK_WriteReg(PSP, 0x20001000)  returns 0x00 (0000ms, 0627ms total)
T2534 000:786 JLINK_WriteReg(CFBP, 0x00000000)  returns 0x00 (0000ms, 0627ms total)
T2534 000:786 JLINK_SetBPEx(Addr = 0x20000000, Type = 0xFFFFFFF2) -- CPU_ReadMem(2 bytes @ 0x20000000)  returns 0x00000001 (0001ms, 0628ms total)
T2534 000:787 JLINK_Go() -- CPU_WriteMem(2 bytes @ 0x20000000) -- CPU_WriteMem(4 bytes @ 0xE0002008) -- CPU_WriteMem(4 bytes @ 0xE000200C) -- CPU_WriteMem(4 bytes @ 0xE0002010) -- CPU_WriteMem(4 bytes @ 0xE0002014) -- CPU_WriteMem(4 bytes @ 0xE0002018) -- CPU_WriteMem(4 bytes @ 0xE000201C) -- CPU_WriteMem(4 bytes @ 0xE0001004) (0006ms, 0634ms total)
T2534 000:793 JLINK_IsHalted() -- CPU_ReadMem(2 bytes @ 0x20000000)  returns TRUE (0004ms, 0638ms total)
T2534 000:797 JLINK_ReadReg(R15 (PC))  returns 0x20000000 (0000ms, 0634ms total)
T2534 000:797 JLINK_ClrBPEx(BPHandle = 0x00000001)  returns 0x00 (0000ms, 0634ms total)
T2534 000:797 JLINK_ReadReg(R0)  returns 0x00000000 (0000ms, 0634ms total)
T2534 000:798 JLINK_WriteReg(R0, 0x08000000)  returns 0x00 (0000ms, 0634ms total)
T2534 000:798 JLINK_WriteReg(R1, 0x00B71B00)  returns 0x00 (0000ms, 0634ms total)
T2534 000:798 JLINK_WriteReg(R2, 0x00000001)  returns 0x00 (0000ms, 0634ms total)
T2534 000:798 JLINK_WriteReg(R3, 0x00000000)  returns 0x00 (0000ms, 0634ms total)
T2534 000:798 JLINK_WriteReg(R4, 0x00000000)  returns 0x00 (0000ms, 0634ms total)
T2534 000:798 JLINK_WriteReg(R5, 0x00000000)  returns 0x00 (0000ms, 0634ms total)
T2534 000:798 JLINK_WriteReg(R6, 0x00000000)  returns 0x00 (0000ms, 0634ms total)
T2534 000:798 JLINK_WriteReg(R7, 0x00000000)  returns 0x00 (0000ms, 0634ms total)
T2534 000:798 JLINK_WriteReg(R8, 0x00000000)  returns 0x00 (0000ms, 0634ms total)
T2534 000:798 JLINK_WriteReg(R9, 0x20000160)  returns 0x00 (0001ms, 0635ms total)
T2534 000:799 JLINK_WriteReg(R10, 0x00000000)  returns 0x00 (0000ms, 0635ms total)
T2534 000:799 JLINK_WriteReg(R11, 0x00000000)  returns 0x00 (0000ms, 0635ms total)
T2534 000:799 JLINK_WriteReg(R12, 0x00000000)  returns 0x00 (0000ms, 0635ms total)
T2534 000:799 JLINK_WriteReg(R13 (SP), 0x20001000)  returns 0x00 (0000ms, 0635ms total)
T2534 000:799 JLINK_WriteReg(R14, 0x20000001)  returns 0x00 (0000ms, 0635ms total)
T2534 000:799 JLINK_WriteReg(R15 (PC), 0x2000007C)  returns 0x00 (0000ms, 0635ms total)
T2534 000:799 JLINK_WriteReg(XPSR, 0x01000000)  returns 0x00 (0000ms, 0635ms total)
T2534 000:799 JLINK_WriteReg(MSP, 0x20001000)  returns 0x00 (0000ms, 0635ms total)
T2534 000:799 JLINK_WriteReg(PSP, 0x20001000)  returns 0x00 (0000ms, 0635ms total)
T2534 000:799 JLINK_WriteReg(CFBP, 0x00000000)  returns 0x00 (0000ms, 0635ms total)
T2534 000:799 JLINK_SetBPEx(Addr = 0x20000000, Type = 0xFFFFFFF2)  returns 0x00000002 (0000ms, 0635ms total)
T2534 000:799 JLINK_Go() (0002ms, 0637ms total)
T2534 000:801 JLINK_IsHalted()  returns FALSE (0000ms, 0637ms total)
T2534 000:884 JLINK_IsHalted() -- CPU_ReadMem(2 bytes @ 0x20000000)  returns TRUE (0004ms, 0641ms total)
T2534 000:888 JLINK_ReadReg(R15 (PC))  returns 0x20000000 (0000ms, 0637ms total)
T2534 000:888 JLINK_ClrBPEx(BPHandle = 0x00000002)  returns 0x00 (0000ms, 0637ms total)
T2534 000:888 JLINK_ReadReg(R0)  returns 0x00000000 (0000ms, 0637ms total)
T2534 000:941 JLINK_WriteReg(R0, 0x00000001)  returns 0x00 (0000ms, 0637ms total)
T2534 000:941 JLINK_WriteReg(R1, 0x00B71B00)  returns 0x00 (0000ms, 0637ms total)
T2534 000:941 JLINK_WriteReg(R2, 0x00000001)  returns 0x00 (0000ms, 0637ms total)
T2534 000:941 JLINK_WriteReg(R3, 0x00000000)  returns 0x00 (0000ms, 0637ms total)
T2534 000:941 JLINK_WriteReg(R4, 0x00000000)  returns 0x00 (0000ms, 0637ms total)
T2534 000:941 JLINK_WriteReg(R5, 0x00000000)  returns 0x00 (0000ms, 0637ms total)
T2534 000:942 JLINK_WriteReg(R6, 0x00000000)  returns 0x00 (0000ms, 0638ms total)
T2534 000:942 JLINK_WriteReg(R7, 0x00000000)  returns 0x00 (0000ms, 0638ms total)
T2534 000:942 JLINK_WriteReg(R8, 0x00000000)  returns 0x00 (0000ms, 0638ms total)
T2534 000:942 JLINK_WriteReg(R9, 0x20000160)  returns 0x00 (0000ms, 0638ms total)
T2534 000:942 JLINK_WriteReg(R10, 0x00000000)  returns 0x00 (0000ms, 0638ms total)
T2534 000:942 JLINK_WriteReg(R11, 0x00000000)  returns 0x00 (0000ms, 0638ms total)
T2534 000:942 JLINK_WriteReg(R12, 0x00000000)  returns 0x00 (0000ms, 0638ms total)
T2534 000:942 JLINK_WriteReg(R13 (SP), 0x20001000)  returns 0x00 (0000ms, 0638ms total)
T2534 000:942 JLINK_WriteReg(R14, 0x20000001)  returns 0x00 (0000ms, 0638ms total)
T2534 000:942 JLINK_WriteReg(R15 (PC), 0x2000006A)  returns 0x00 (0001ms, 0639ms total)
T2534 000:943 JLINK_WriteReg(XPSR, 0x01000000)  returns 0x00 (0000ms, 0639ms total)
T2534 000:943 JLINK_WriteReg(MSP, 0x20001000)  returns 0x00 (0000ms, 0639ms total)
T2534 000:943 JLINK_WriteReg(PSP, 0x20001000)  returns 0x00 (0000ms, 0639ms total)
T2534 000:943 JLINK_WriteReg(CFBP, 0x00000000)  returns 0x00 (0000ms, 0639ms total)
T2534 000:943 JLINK_SetBPEx(Addr = 0x20000000, Type = 0xFFFFFFF2)  returns 0x00000003 (0000ms, 0639ms total)
T2534 000:943 JLINK_Go() (0002ms, 0641ms total)
T2534 000:945 JLINK_IsHalted() -- CPU_ReadMem(2 bytes @ 0x20000000)  returns TRUE (0005ms, 0646ms total)
T2534 000:950 JLINK_ReadReg(R15 (PC))  returns 0x20000000 (0000ms, 0641ms total)
T2534 000:950 JLINK_ClrBPEx(BPHandle = 0x00000003)  returns 0x00 (0000ms, 0641ms total)
T2534 000:950 JLINK_ReadReg(R0)  returns 0x00000000 (0000ms, 0641ms total)
T2534 000:959 JLINK_WriteMem(0x20000000, 0x0164 Bytes, ...) - Data: 00 BE 0A E0 0D 78 2D 06 68 40 08 24 40 00 00 D3 ... -- CPU_WriteMem(356 bytes @ 0x20000000)  returns 0x164 (0005ms, 0646ms total)
T2534 000:964 JLINK_WriteReg(R0, 0x08000000)  returns 0x00 (0000ms, 0646ms total)
T2534 000:964 JLINK_WriteReg(R1, 0x00B71B00)  returns 0x00 (0000ms, 0646ms total)
T2534 000:964 JLINK_WriteReg(R2, 0x00000002)  returns 0x00 (0000ms, 0646ms total)
T2534 000:964 JLINK_WriteReg(R3, 0x00000000)  returns 0x00 (0000ms, 0646ms total)
T2534 000:964 JLINK_WriteReg(R4, 0x00000000)  returns 0x00 (0000ms, 0646ms total)
T2534 000:964 JLINK_WriteReg(R5, 0x00000000)  returns 0x00 (0000ms, 0646ms total)
T2534 000:964 JLINK_WriteReg(R6, 0x00000000)  returns 0x00 (0000ms, 0646ms total)
T2534 000:964 JLINK_WriteReg(R7, 0x00000000)  returns 0x00 (0000ms, 0646ms total)
T2534 000:964 JLINK_WriteReg(R8, 0x00000000)  returns 0x00 (0000ms, 0646ms total)
T2534 000:964 JLINK_WriteReg(R9, 0x20000160)  returns 0x00 (0000ms, 0646ms total)
T2534 000:964 JLINK_WriteReg(R10, 0x00000000)  returns 0x00 (0000ms, 0646ms total)
T2534 000:964 JLINK_WriteReg(R11, 0x00000000)  returns 0x00 (0001ms, 0647ms total)
T2534 000:965 JLINK_WriteReg(R12, 0x00000000)  returns 0x00 (0000ms, 0647ms total)
T2534 000:965 JLINK_WriteReg(R13 (SP), 0x20001000)  returns 0x00 (0000ms, 0647ms total)
T2534 000:965 JLINK_WriteReg(R14, 0x20000001)  returns 0x00 (0000ms, 0647ms total)
T2534 000:965 JLINK_WriteReg(R15 (PC), 0x20000038)  returns 0x00 (0000ms, 0647ms total)
T2534 000:965 JLINK_WriteReg(XPSR, 0x01000000)  returns 0x00 (0000ms, 0647ms total)
T2534 000:965 JLINK_WriteReg(MSP, 0x20001000)  returns 0x00 (0000ms, 0647ms total)
T2534 000:965 JLINK_WriteReg(PSP, 0x20001000)  returns 0x00 (0000ms, 0647ms total)
T2534 000:965 JLINK_WriteReg(CFBP, 0x00000000)  returns 0x00 (0000ms, 0647ms total)
T2534 000:965 JLINK_SetBPEx(Addr = 0x20000000, Type = 0xFFFFFFF2) -- CPU_ReadMem(2 bytes @ 0x20000000)  returns 0x00000004 (0001ms, 0648ms total)
T2534 000:966 JLINK_Go() -- CPU_WriteMem(2 bytes @ 0x20000000) (0001ms, 0649ms total)
T2534 000:967 JLINK_IsHalted() -- CPU_ReadMem(2 bytes @ 0x20000000)  returns TRUE (0005ms, 0654ms total)
T2534 000:972 JLINK_ReadReg(R15 (PC))  returns 0x20000000 (0000ms, 0649ms total)
T2534 000:972 JLINK_ClrBPEx(BPHandle = 0x00000004)  returns 0x00 (0000ms, 0649ms total)
T2534 000:972 JLINK_ReadReg(R0)  returns 0x00000000 (0000ms, 0649ms total)
T2534 000:972 JLINK_WriteMem(0x20000164, 0x0400 Bytes, ...) - Data: F8 12 00 20 D5 01 00 08 D9 01 00 08 DB 01 00 08 ... -- CPU_WriteMem(1024 bytes @ 0x20000164)  returns 0x400 (0013ms, 0662ms total)
T2534 000:985 JLINK_WriteReg(R0, 0x08000000)  returns 0x00 (0000ms, 0662ms total)
T2534 000:985 JLINK_WriteReg(R1, 0x00000400)  returns 0x00 (0000ms, 0662ms total)
T2534 000:985 JLINK_WriteReg(R2, 0x20000164)  returns 0x00 (0000ms, 0662ms total)
T2534 000:985 JLINK_WriteReg(R3, 0x00000000)  returns 0x00 (0000ms, 0662ms total)
T2534 000:985 JLINK_WriteReg(R4, 0x00000000)  returns 0x00 (0000ms, 0662ms total)
T2534 000:985 JLINK_WriteReg(R5, 0x00000000)  returns 0x00 (0000ms, 0662ms total)
T2534 000:985 JLINK_WriteReg(R6, 0x00000000)  returns 0x00 (0001ms, 0663ms total)
T2534 000:986 JLINK_WriteReg(R7, 0x00000000)  returns 0x00 (0000ms, 0663ms total)
T2534 000:986 JLINK_WriteReg(R8, 0x00000000)  returns 0x00 (0000ms, 0663ms total)
T2534 000:986 JLINK_WriteReg(R9, 0x20000160)  returns 0x00 (0000ms, 0663ms total)
T2534 000:986 JLINK_WriteReg(R10, 0x00000000)  returns 0x00 (0000ms, 0663ms total)
T2534 000:986 JLINK_WriteReg(R11, 0x00000000)  returns 0x00 (0000ms, 0663ms total)
T2534 000:986 JLINK_WriteReg(R12, 0x00000000)  returns 0x00 (0000ms, 0663ms total)
T2534 000:986 JLINK_WriteReg(R13 (SP), 0x20001000)  returns 0x00 (0000ms, 0663ms total)
T2534 000:986 JLINK_WriteReg(R14, 0x20000001)  returns 0x00 (0000ms, 0663ms total)
T2534 000:986 JLINK_WriteReg(R15 (PC), 0x200000F4)  returns 0x00 (0000ms, 0663ms total)
T2534 000:986 JLINK_WriteReg(XPSR, 0x01000000)  returns 0x00 (0000ms, 0663ms total)
T2534 000:986 JLINK_WriteReg(MSP, 0x20001000)  returns 0x00 (0000ms, 0663ms total)
T2534 000:986 JLINK_WriteReg(PSP, 0x20001000)  returns 0x00 (0000ms, 0663ms total)
T2534 000:986 JLINK_WriteReg(CFBP, 0x00000000)  returns 0x00 (0000ms, 0663ms total)
T2534 000:986 JLINK_SetBPEx(Addr = 0x20000000, Type = 0xFFFFFFF2)  returns 0x00000005 (0000ms, 0663ms total)
T2534 000:986 JLINK_Go() (0002ms, 0665ms total)
T2534 000:988 JLINK_IsHalted()  returns FALSE (0001ms, 0666ms total)
T2534 001:007 JLINK_IsHalted()  returns FALSE (0001ms, 0666ms total)
T2534 001:010 JLINK_IsHalted()  returns FALSE (0000ms, 0665ms total)
T2534 001:012 JLINK_IsHalted()  returns FALSE (0001ms, 0666ms total)
T2534 001:015 JLINK_IsHalted()  returns FALSE (0000ms, 0665ms total)
T2534 001:045 JLINK_IsHalted() -- CPU_ReadMem(2 bytes @ 0x20000000)  returns TRUE (0004ms, 0669ms total)
T2534 001:049 JLINK_ReadReg(R15 (PC))  returns 0x20000000 (0000ms, 0665ms total)
T2534 001:049 JLINK_ClrBPEx(BPHandle = 0x00000005)  returns 0x00 (0000ms, 0665ms total)
T2534 001:049 JLINK_ReadReg(R0)  returns 0x00000000 (0000ms, 0665ms total)
T2534 001:051 JLINK_WriteMem(0x20000164, 0x0400 Bytes, ...) - Data: 01 F0 15 FD 13 48 00 68 15 49 08 60 11 48 00 68 ... -- CPU_WriteMem(1024 bytes @ 0x20000164)  returns 0x400 (0013ms, 0678ms total)
T2534 001:064 JLINK_WriteReg(R0, 0x08000400)  returns 0x00 (0000ms, 0678ms total)
T2534 001:064 JLINK_WriteReg(R1, 0x00000400)  returns 0x00 (0000ms, 0678ms total)
T2534 001:064 JLINK_WriteReg(R2, 0x20000164)  returns 0x00 (0000ms, 0678ms total)
T2534 001:064 JLINK_WriteReg(R3, 0x00000000)  returns 0x00 (0000ms, 0678ms total)
T2534 001:064 JLINK_WriteReg(R4, 0x00000000)  returns 0x00 (0000ms, 0678ms total)
T2534 001:064 JLINK_WriteReg(R5, 0x00000000)  returns 0x00 (0000ms, 0678ms total)
T2534 001:064 JLINK_WriteReg(R6, 0x00000000)  returns 0x00 (0000ms, 0678ms total)
T2534 001:064 JLINK_WriteReg(R7, 0x00000000)  returns 0x00 (0000ms, 0678ms total)
T2534 001:064 JLINK_WriteReg(R8, 0x00000000)  returns 0x00 (0000ms, 0678ms total)
T2534 001:064 JLINK_WriteReg(R9, 0x20000160)  returns 0x00 (0000ms, 0678ms total)
T2534 001:064 JLINK_WriteReg(R10, 0x00000000)  returns 0x00 (0000ms, 0678ms total)
T2534 001:064 JLINK_WriteReg(R11, 0x00000000)  returns 0x00 (0000ms, 0678ms total)
T2534 001:065 JLINK_WriteReg(R12, 0x00000000)  returns 0x00 (0000ms, 0679ms total)
T2534 001:065 JLINK_WriteReg(R13 (SP), 0x20001000)  returns 0x00 (0000ms, 0679ms total)
T2534 001:065 JLINK_WriteReg(R14, 0x20000001)  returns 0x00 (0000ms, 0679ms total)
T2534 001:065 JLINK_WriteReg(R15 (PC), 0x200000F4)  returns 0x00 (0000ms, 0679ms total)
T2534 001:065 JLINK_WriteReg(XPSR, 0x01000000)  returns 0x00 (0000ms, 0679ms total)
T2534 001:065 JLINK_WriteReg(MSP, 0x20001000)  returns 0x00 (0000ms, 0679ms total)
T2534 001:065 JLINK_WriteReg(PSP, 0x20001000)  returns 0x00 (0000ms, 0679ms total)
T2534 001:065 JLINK_WriteReg(CFBP, 0x00000000)  returns 0x00 (0000ms, 0679ms total)
T2534 001:065 JLINK_SetBPEx(Addr = 0x20000000, Type = 0xFFFFFFF2)  returns 0x00000006 (0000ms, 0679ms total)
T2534 001:065 JLINK_Go() (0002ms, 0681ms total)
T2534 001:067 JLINK_IsHalted()  returns FALSE (0001ms, 0682ms total)
T2534 001:072 JLINK_IsHalted()  returns FALSE (0001ms, 0682ms total)
T2534 001:075 JLINK_IsHalted()  returns FALSE (0000ms, 0681ms total)
T2534 001:077 JLINK_IsHalted()  returns FALSE (0000ms, 0681ms total)
T2534 001:079 JLINK_IsHalted()  returns FALSE (0001ms, 0682ms total)
T2534 001:082 JLINK_IsHalted()  returns FALSE (0001ms, 0682ms total)
T2534 001:085 JLINK_IsHalted()  returns FALSE (0001ms, 0682ms total)
T2534 001:088 JLINK_IsHalted()  returns FALSE (0000ms, 0681ms total)
T2534 001:090 JLINK_IsHalted()  returns FALSE (0000ms, 0681ms total)
T2534 001:092 JLINK_IsHalted()  returns FALSE (0000ms, 0681ms total)
T2534 001:099 JLINK_IsHalted() -- CPU_ReadMem(2 bytes @ 0x20000000)  returns TRUE (0005ms, 0686ms total)
T2534 001:104 JLINK_ReadReg(R15 (PC))  returns 0x20000000 (0000ms, 0681ms total)
T2534 001:104 JLINK_ClrBPEx(BPHandle = 0x00000006)  returns 0x00 (0000ms, 0681ms total)
T2534 001:104 JLINK_ReadReg(R0)  returns 0x00000000 (0000ms, 0681ms total)
T2534 001:105 JLINK_WriteMem(0x20000164, 0x0400 Bytes, ...) - Data: 40 01 00 29 F9 D0 70 47 9A 49 08 80 00 BF 99 49 ... -- CPU_WriteMem(1024 bytes @ 0x20000164)  returns 0x400 (0013ms, 0694ms total)
T2534 001:118 JLINK_WriteReg(R0, 0x08000800)  returns 0x00 (0000ms, 0694ms total)
T2534 001:118 JLINK_WriteReg(R1, 0x00000400)  returns 0x00 (0000ms, 0694ms total)
T2534 001:118 JLINK_WriteReg(R2, 0x20000164)  returns 0x00 (0000ms, 0694ms total)
T2534 001:118 JLINK_WriteReg(R3, 0x00000000)  returns 0x00 (0000ms, 0694ms total)
T2534 001:118 JLINK_WriteReg(R4, 0x00000000)  returns 0x00 (0000ms, 0694ms total)
T2534 001:118 JLINK_WriteReg(R5, 0x00000000)  returns 0x00 (0000ms, 0694ms total)
T2534 001:118 JLINK_WriteReg(R6, 0x00000000)  returns 0x00 (0000ms, 0694ms total)
T2534 001:118 JLINK_WriteReg(R7, 0x00000000)  returns 0x00 (0000ms, 0694ms total)
T2534 001:118 JLINK_WriteReg(R8, 0x00000000)  returns 0x00 (0000ms, 0694ms total)
T2534 001:118 JLINK_WriteReg(R9, 0x20000160)  returns 0x00 (0001ms, 0695ms total)
T2534 001:119 JLINK_WriteReg(R10, 0x00000000)  returns 0x00 (0000ms, 0695ms total)
T2534 001:119 JLINK_WriteReg(R11, 0x00000000)  returns 0x00 (0000ms, 0695ms total)
T2534 001:119 JLINK_WriteReg(R12, 0x00000000)  returns 0x00 (0000ms, 0695ms total)
T2534 001:119 JLINK_WriteReg(R13 (SP), 0x20001000)  returns 0x00 (0000ms, 0695ms total)
T2534 001:119 JLINK_WriteReg(R14, 0x20000001)  returns 0x00 (0000ms, 0695ms total)
T2534 001:119 JLINK_WriteReg(R15 (PC), 0x200000F4)  returns 0x00 (0000ms, 0695ms total)
T2534 001:119 JLINK_WriteReg(XPSR, 0x01000000)  returns 0x00 (0000ms, 0695ms total)
T2534 001:119 JLINK_WriteReg(MSP, 0x20001000)  returns 0x00 (0000ms, 0695ms total)
T2534 001:119 JLINK_WriteReg(PSP, 0x20001000)  returns 0x00 (0000ms, 0695ms total)
T2534 001:119 JLINK_WriteReg(CFBP, 0x00000000)  returns 0x00 (0000ms, 0695ms total)
T2534 001:119 JLINK_SetBPEx(Addr = 0x20000000, Type = 0xFFFFFFF2)  returns 0x00000007 (0000ms, 0695ms total)
T2534 001:119 JLINK_Go() (0003ms, 0698ms total)
T2534 001:122 JLINK_IsHalted()  returns FALSE (0000ms, 0698ms total)
T2534 001:124 JLINK_IsHalted()  returns FALSE (0000ms, 0698ms total)
T2534 001:147 JLINK_IsHalted()  returns FALSE (0001ms, 0699ms total)
T2534 001:150 JLINK_IsHalted()  returns FALSE (0001ms, 0699ms total)
T2534 001:153 JLINK_IsHalted() -- CPU_ReadMem(2 bytes @ 0x20000000)  returns TRUE (0003ms, 0701ms total)
T2534 001:156 JLINK_ReadReg(R15 (PC))  returns 0x20000000 (0000ms, 0698ms total)
T2534 001:156 JLINK_ClrBPEx(BPHandle = 0x00000007)  returns 0x00 (0000ms, 0698ms total)
T2534 001:156 JLINK_ReadReg(R0)  returns 0x00000000 (0000ms, 0698ms total)
T2534 001:159 JLINK_WriteMem(0x20000164, 0x0400 Bytes, ...) - Data: 00 26 1C E0 27 46 07 F0 80 07 80 2F 04 D1 B9 01 ... -- CPU_WriteMem(1024 bytes @ 0x20000164)  returns 0x400 (0012ms, 0710ms total)
T2534 001:171 JLINK_WriteReg(R0, 0x08000C00)  returns 0x00 (0000ms, 0710ms total)
T2534 001:171 JLINK_WriteReg(R1, 0x00000400)  returns 0x00 (0000ms, 0710ms total)
T2534 001:171 JLINK_WriteReg(R2, 0x20000164)  returns 0x00 (0000ms, 0710ms total)
T2534 001:172 JLINK_WriteReg(R3, 0x00000000)  returns 0x00 (0000ms, 0710ms total)
T2534 001:172 JLINK_WriteReg(R4, 0x00000000)  returns 0x00 (0000ms, 0710ms total)
T2534 001:172 JLINK_WriteReg(R5, 0x00000000)  returns 0x00 (0000ms, 0710ms total)
T2534 001:172 JLINK_WriteReg(R6, 0x00000000)  returns 0x00 (0000ms, 0710ms total)
T2534 001:172 JLINK_WriteReg(R7, 0x00000000)  returns 0x00 (0000ms, 0710ms total)
T2534 001:172 JLINK_WriteReg(R8, 0x00000000)  returns 0x00 (0000ms, 0710ms total)
T2534 001:172 JLINK_WriteReg(R9, 0x20000160)  returns 0x00 (0000ms, 0710ms total)
T2534 001:172 JLINK_WriteReg(R10, 0x00000000)  returns 0x00 (0000ms, 0710ms total)
T2534 001:172 JLINK_WriteReg(R11, 0x00000000)  returns 0x00 (0000ms, 0710ms total)
T2534 001:172 JLINK_WriteReg(R12, 0x00000000)  returns 0x00 (0000ms, 0710ms total)
T2534 001:172 JLINK_WriteReg(R13 (SP), 0x20001000)  returns 0x00 (0000ms, 0710ms total)
T2534 001:172 JLINK_WriteReg(R14, 0x20000001)  returns 0x00 (0000ms, 0710ms total)
T2534 001:172 JLINK_WriteReg(R15 (PC), 0x200000F4)  returns 0x00 (0000ms, 0710ms total)
T2534 001:172 JLINK_WriteReg(XPSR, 0x01000000)  returns 0x00 (0001ms, 0711ms total)
T2534 001:173 JLINK_WriteReg(MSP, 0x20001000)  returns 0x00 (0000ms, 0711ms total)
T2534 001:173 JLINK_WriteReg(PSP, 0x20001000)  returns 0x00 (0000ms, 0711ms total)
T2534 001:173 JLINK_WriteReg(CFBP, 0x00000000)  returns 0x00 (0000ms, 0711ms total)
T2534 001:173 JLINK_SetBPEx(Addr = 0x20000000, Type = 0xFFFFFFF2)  returns 0x00000008 (0000ms, 0711ms total)
T2534 001:173 JLINK_Go() (0002ms, 0713ms total)
T2534 001:175 JLINK_IsHalted()  returns FALSE (0000ms, 0713ms total)
T2534 001:182 JLINK_IsHalted()  returns FALSE (0000ms, 0713ms total)
T2534 001:184 JLINK_IsHalted()  returns FALSE (0000ms, 0713ms total)
T2534 001:186 JLINK_IsHalted()  returns FALSE (0000ms, 0713ms total)
T2534 001:189 JLINK_IsHalted()  returns FALSE (0001ms, 0714ms total)
T2534 001:192 JLINK_IsHalted()  returns FALSE (0001ms, 0714ms total)
T2534 001:195 JLINK_IsHalted()  returns FALSE (0000ms, 0713ms total)
T2534 001:197 JLINK_IsHalted()  returns FALSE (0001ms, 0714ms total)
T2534 001:200 JLINK_IsHalted()  returns FALSE (0000ms, 0713ms total)
T2534 001:202 JLINK_IsHalted()  returns FALSE (0001ms, 0714ms total)
T2534 001:205 JLINK_IsHalted() -- CPU_ReadMem(2 bytes @ 0x20000000)  returns TRUE (0004ms, 0717ms total)
T2534 001:209 JLINK_ReadReg(R15 (PC))  returns 0x20000000 (0000ms, 0713ms total)
T2534 001:209 JLINK_ClrBPEx(BPHandle = 0x00000008)  returns 0x00 (0000ms, 0713ms total)
T2534 001:209 JLINK_ReadReg(R0)  returns 0x00000000 (0000ms, 0713ms total)
T2534 001:210 JLINK_WriteMem(0x20000164, 0x0400 Bytes, ...) - Data: FF F7 4D FE 00 21 D9 20 FF F7 49 FE 00 21 F1 20 ... -- CPU_WriteMem(1024 bytes @ 0x20000164)  returns 0x400 (0013ms, 0726ms total)
T2534 001:223 JLINK_WriteReg(R0, 0x08001000)  returns 0x00 (0000ms, 0726ms total)
T2534 001:223 JLINK_WriteReg(R1, 0x00000400)  returns 0x00 (0000ms, 0726ms total)
T2534 001:223 JLINK_WriteReg(R2, 0x20000164)  returns 0x00 (0000ms, 0726ms total)
T2534 001:223 JLINK_WriteReg(R3, 0x00000000)  returns 0x00 (0000ms, 0726ms total)
T2534 001:223 JLINK_WriteReg(R4, 0x00000000)  returns 0x00 (0000ms, 0726ms total)
T2534 001:223 JLINK_WriteReg(R5, 0x00000000)  returns 0x00 (0000ms, 0726ms total)
T2534 001:223 JLINK_WriteReg(R6, 0x00000000)  returns 0x00 (0000ms, 0726ms total)
T2534 001:223 JLINK_WriteReg(R7, 0x00000000)  returns 0x00 (0000ms, 0726ms total)
T2534 001:223 JLINK_WriteReg(R8, 0x00000000)  returns 0x00 (0000ms, 0726ms total)
T2534 001:223 JLINK_WriteReg(R9, 0x20000160)  returns 0x00 (0000ms, 0726ms total)
T2534 001:223 JLINK_WriteReg(R10, 0x00000000)  returns 0x00 (0000ms, 0726ms total)
T2534 001:223 JLINK_WriteReg(R11, 0x00000000)  returns 0x00 (0000ms, 0726ms total)
T2534 001:224 JLINK_WriteReg(R12, 0x00000000)  returns 0x00 (0000ms, 0727ms total)
T2534 001:224 JLINK_WriteReg(R13 (SP), 0x20001000)  returns 0x00 (0000ms, 0727ms total)
T2534 001:224 JLINK_WriteReg(R14, 0x20000001)  returns 0x00 (0000ms, 0727ms total)
T2534 001:224 JLINK_WriteReg(R15 (PC), 0x200000F4)  returns 0x00 (0000ms, 0727ms total)
T2534 001:224 JLINK_WriteReg(XPSR, 0x01000000)  returns 0x00 (0000ms, 0727ms total)
T2534 001:224 JLINK_WriteReg(MSP, 0x20001000)  returns 0x00 (0000ms, 0727ms total)
T2534 001:224 JLINK_WriteReg(PSP, 0x20001000)  returns 0x00 (0000ms, 0727ms total)
T2534 001:224 JLINK_WriteReg(CFBP, 0x00000000)  returns 0x00 (0000ms, 0727ms total)
T2534 001:224 JLINK_SetBPEx(Addr = 0x20000000, Type = 0xFFFFFFF2)  returns 0x00000009 (0000ms, 0727ms total)
T2534 001:224 JLINK_Go() (0003ms, 0730ms total)
T2534 001:227 JLINK_IsHalted()  returns FALSE (0001ms, 0731ms total)
T2534 001:230 JLINK_IsHalted()  returns FALSE (0000ms, 0730ms total)
T2534 001:232 JLINK_IsHalted()  returns FALSE (0000ms, 0730ms total)
T2534 001:234 JLINK_IsHalted()  returns FALSE (0000ms, 0730ms total)
T2534 001:262 JLINK_IsHalted() -- CPU_ReadMem(2 bytes @ 0x20000000)  returns TRUE (0004ms, 0734ms total)
T2534 001:266 JLINK_ReadReg(R15 (PC))  returns 0x20000000 (0000ms, 0730ms total)
T2534 001:266 JLINK_ClrBPEx(BPHandle = 0x00000009)  returns 0x00 (0000ms, 0730ms total)
T2534 001:266 JLINK_ReadReg(R0)  returns 0x00000000 (0000ms, 0730ms total)
T2534 001:267 JLINK_WriteMem(0x20000164, 0x0400 Bytes, ...) - Data: 08 00 88 61 08 46 80 69 40 F0 04 00 88 61 1D 48 ... -- CPU_WriteMem(1024 bytes @ 0x20000164)  returns 0x400 (0013ms, 0743ms total)
T2534 001:280 JLINK_WriteReg(R0, 0x08001400)  returns 0x00 (0000ms, 0743ms total)
T2534 001:280 JLINK_WriteReg(R1, 0x00000400)  returns 0x00 (0000ms, 0743ms total)
T2534 001:280 JLINK_WriteReg(R2, 0x20000164)  returns 0x00 (0000ms, 0743ms total)
T2534 001:280 JLINK_WriteReg(R3, 0x00000000)  returns 0x00 (0000ms, 0743ms total)
T2534 001:280 JLINK_WriteReg(R4, 0x00000000)  returns 0x00 (0000ms, 0743ms total)
T2534 001:280 JLINK_WriteReg(R5, 0x00000000)  returns 0x00 (0000ms, 0743ms total)
T2534 001:280 JLINK_WriteReg(R6, 0x00000000)  returns 0x00 (0000ms, 0743ms total)
T2534 001:280 JLINK_WriteReg(R7, 0x00000000)  returns 0x00 (0000ms, 0743ms total)
T2534 001:280 JLINK_WriteReg(R8, 0x00000000)  returns 0x00 (0000ms, 0743ms total)
T2534 001:280 JLINK_WriteReg(R9, 0x20000160)  returns 0x00 (0001ms, 0744ms total)
T2534 001:281 JLINK_WriteReg(R10, 0x00000000)  returns 0x00 (0000ms, 0744ms total)
T2534 001:281 JLINK_WriteReg(R11, 0x00000000)  returns 0x00 (0000ms, 0744ms total)
T2534 001:281 JLINK_WriteReg(R12, 0x00000000)  returns 0x00 (0000ms, 0744ms total)
T2534 001:281 JLINK_WriteReg(R13 (SP), 0x20001000)  returns 0x00 (0000ms, 0744ms total)
T2534 001:281 JLINK_WriteReg(R14, 0x20000001)  returns 0x00 (0000ms, 0744ms total)
T2534 001:281 JLINK_WriteReg(R15 (PC), 0x200000F4)  returns 0x00 (0000ms, 0744ms total)
T2534 001:281 JLINK_WriteReg(XPSR, 0x01000000)  returns 0x00 (0000ms, 0744ms total)
T2534 001:281 JLINK_WriteReg(MSP, 0x20001000)  returns 0x00 (0001ms, 0745ms total)
T2534 001:282 JLINK_WriteReg(PSP, 0x20001000)  returns 0x00 (0000ms, 0745ms total)
T2534 001:282 JLINK_WriteReg(CFBP, 0x00000000)  returns 0x00 (0000ms, 0745ms total)
T2534 001:282 JLINK_SetBPEx(Addr = 0x20000000, Type = 0xFFFFFFF2)  returns 0x0000000A (0000ms, 0745ms total)
T2534 001:282 JLINK_Go() (0002ms, 0747ms total)
T2534 001:284 JLINK_IsHalted()  returns FALSE (0000ms, 0747ms total)
T2534 001:289 JLINK_IsHalted()  returns FALSE (0000ms, 0747ms total)
T2534 001:291 JLINK_IsHalted()  returns FALSE (0000ms, 0747ms total)
T2534 001:293 JLINK_IsHalted()  returns FALSE (0000ms, 0747ms total)
T2534 001:295 JLINK_IsHalted()  returns FALSE (0000ms, 0747ms total)
T2534 001:297 JLINK_IsHalted()  returns FALSE (0000ms, 0747ms total)
T2534 001:300 JLINK_IsHalted()  returns FALSE (0000ms, 0747ms total)
T2534 001:302 JLINK_IsHalted()  returns FALSE (0000ms, 0747ms total)
T2534 001:304 JLINK_IsHalted()  returns FALSE (0000ms, 0747ms total)
T2534 001:306 JLINK_IsHalted()  returns FALSE (0000ms, 0747ms total)
T2534 001:308 JLINK_IsHalted()  returns FALSE (0000ms, 0747ms total)
T2534 001:310 JLINK_IsHalted()  returns FALSE (0000ms, 0747ms total)
T2534 001:312 JLINK_IsHalted()  returns FALSE (0000ms, 0747ms total)
T2534 001:314 JLINK_IsHalted()  returns FALSE (0000ms, 0747ms total)
T2534 001:316 JLINK_IsHalted() -- CPU_ReadMem(2 bytes @ 0x20000000)  returns TRUE (0004ms, 0751ms total)
T2534 001:320 JLINK_ReadReg(R15 (PC))  returns 0x20000000 (0000ms, 0747ms total)
T2534 001:320 JLINK_ClrBPEx(BPHandle = 0x0000000A)  returns 0x00 (0000ms, 0747ms total)
T2534 001:320 JLINK_ReadReg(R0)  returns 0x00000000 (0000ms, 0747ms total)
T2534 001:321 JLINK_WriteMem(0x20000164, 0x0400 Bytes, ...) - Data: 81 49 09 1D 08 60 FF F7 33 FF 00 20 7F 49 C1 F8 ... -- CPU_WriteMem(1024 bytes @ 0x20000164)  returns 0x400 (0013ms, 0760ms total)
T2534 001:334 JLINK_WriteReg(R0, 0x08001800)  returns 0x00 (0000ms, 0760ms total)
T2534 001:334 JLINK_WriteReg(R1, 0x00000400)  returns 0x00 (0000ms, 0760ms total)
T2534 001:334 JLINK_WriteReg(R2, 0x20000164)  returns 0x00 (0000ms, 0760ms total)
T2534 001:334 JLINK_WriteReg(R3, 0x00000000)  returns 0x00 (0001ms, 0761ms total)
T2534 001:335 JLINK_WriteReg(R4, 0x00000000)  returns 0x00 (0000ms, 0761ms total)
T2534 001:335 JLINK_WriteReg(R5, 0x00000000)  returns 0x00 (0000ms, 0761ms total)
T2534 001:335 JLINK_WriteReg(R6, 0x00000000)  returns 0x00 (0000ms, 0761ms total)
T2534 001:335 JLINK_WriteReg(R7, 0x00000000)  returns 0x00 (0000ms, 0761ms total)
T2534 001:335 JLINK_WriteReg(R8, 0x00000000)  returns 0x00 (0000ms, 0761ms total)
T2534 001:335 JLINK_WriteReg(R9, 0x20000160)  returns 0x00 (0000ms, 0761ms total)
T2534 001:335 JLINK_WriteReg(R10, 0x00000000)  returns 0x00 (0000ms, 0761ms total)
T2534 001:335 JLINK_WriteReg(R11, 0x00000000)  returns 0x00 (0000ms, 0761ms total)
T2534 001:336 JLINK_WriteReg(R12, 0x00000000)  returns 0x00 (0000ms, 0762ms total)
T2534 001:336 JLINK_WriteReg(R13 (SP), 0x20001000)  returns 0x00 (0000ms, 0762ms total)
T2534 001:336 JLINK_WriteReg(R14, 0x20000001)  returns 0x00 (0000ms, 0762ms total)
T2534 001:336 JLINK_WriteReg(R15 (PC), 0x200000F4)  returns 0x00 (0000ms, 0762ms total)
T2534 001:336 JLINK_WriteReg(XPSR, 0x01000000)  returns 0x00 (0000ms, 0762ms total)
T2534 001:336 JLINK_WriteReg(MSP, 0x20001000)  returns 0x00 (0000ms, 0762ms total)
T2534 001:336 JLINK_WriteReg(PSP, 0x20001000)  returns 0x00 (0000ms, 0762ms total)
T2534 001:336 JLINK_WriteReg(CFBP, 0x00000000)  returns 0x00 (0001ms, 0763ms total)
T2534 001:337 JLINK_SetBPEx(Addr = 0x20000000, Type = 0xFFFFFFF2)  returns 0x0000000B (0000ms, 0763ms total)
T2534 001:337 JLINK_Go() (0002ms, 0765ms total)
T2534 001:339 JLINK_IsHalted()  returns FALSE (0000ms, 0765ms total)
T2534 001:341 JLINK_IsHalted()  returns FALSE (0000ms, 0765ms total)
T2534 001:343 JLINK_IsHalted()  returns FALSE (0000ms, 0765ms total)
T2534 001:345 JLINK_IsHalted()  returns FALSE (0000ms, 0765ms total)
T2534 001:371 JLINK_IsHalted() -- CPU_ReadMem(2 bytes @ 0x20000000)  returns TRUE (0003ms, 0768ms total)
T2534 001:375 JLINK_ReadReg(R15 (PC))  returns 0x20000000 (0000ms, 0765ms total)
T2534 001:375 JLINK_ClrBPEx(BPHandle = 0x0000000B)  returns 0x00 (0000ms, 0765ms total)
T2534 001:375 JLINK_ReadReg(R0)  returns 0x00000000 (0000ms, 0765ms total)
T2534 001:376 JLINK_WriteMem(0x20000164, 0x0400 Bytes, ...) - Data: 01 DB 01 46 00 E0 41 42 07 9A 11 44 07 91 BD F9 ... -- CPU_WriteMem(1024 bytes @ 0x20000164)  returns 0x400 (0012ms, 0777ms total)
T2534 001:388 JLINK_WriteReg(R0, 0x08001C00)  returns 0x00 (0001ms, 0778ms total)
T2534 001:389 JLINK_WriteReg(R1, 0x00000400)  returns 0x00 (0000ms, 0778ms total)
T2534 001:389 JLINK_WriteReg(R2, 0x20000164)  returns 0x00 (0000ms, 0778ms total)
T2534 001:389 JLINK_WriteReg(R3, 0x00000000)  returns 0x00 (0000ms, 0778ms total)
T2534 001:389 JLINK_WriteReg(R4, 0x00000000)  returns 0x00 (0000ms, 0778ms total)
T2534 001:389 JLINK_WriteReg(R5, 0x00000000)  returns 0x00 (0000ms, 0778ms total)
T2534 001:389 JLINK_WriteReg(R6, 0x00000000)  returns 0x00 (0000ms, 0778ms total)
T2534 001:389 JLINK_WriteReg(R7, 0x00000000)  returns 0x00 (0000ms, 0778ms total)
T2534 001:389 JLINK_WriteReg(R8, 0x00000000)  returns 0x00 (0001ms, 0779ms total)
T2534 001:390 JLINK_WriteReg(R9, 0x20000160)  returns 0x00 (0000ms, 0779ms total)
T2534 001:390 JLINK_WriteReg(R10, 0x00000000)  returns 0x00 (0000ms, 0779ms total)
T2534 001:390 JLINK_WriteReg(R11, 0x00000000)  returns 0x00 (0000ms, 0779ms total)
T2534 001:390 JLINK_WriteReg(R12, 0x00000000)  returns 0x00 (0000ms, 0779ms total)
T2534 001:390 JLINK_WriteReg(R13 (SP), 0x20001000)  returns 0x00 (0000ms, 0779ms total)
T2534 001:390 JLINK_WriteReg(R14, 0x20000001)  returns 0x00 (0000ms, 0779ms total)
T2534 001:390 JLINK_WriteReg(R15 (PC), 0x200000F4)  returns 0x00 (0000ms, 0779ms total)
T2534 001:390 JLINK_WriteReg(XPSR, 0x01000000)  returns 0x00 (0001ms, 0780ms total)
T2534 001:391 JLINK_WriteReg(MSP, 0x20001000)  returns 0x00 (0000ms, 0780ms total)
T2534 001:391 JLINK_WriteReg(PSP, 0x20001000)  returns 0x00 (0000ms, 0780ms total)
T2534 001:391 JLINK_WriteReg(CFBP, 0x00000000)  returns 0x00 (0000ms, 0780ms total)
T2534 001:391 JLINK_SetBPEx(Addr = 0x20000000, Type = 0xFFFFFFF2)  returns 0x0000000C (0000ms, 0780ms total)
T2534 001:391 JLINK_Go() (0002ms, 0782ms total)
T2534 001:393 JLINK_IsHalted()  returns FALSE (0001ms, 0783ms total)
T2534 001:400 JLINK_IsHalted()  returns FALSE (0000ms, 0782ms total)
T2534 001:402 JLINK_IsHalted()  returns FALSE (0000ms, 0782ms total)
T2534 001:404 JLINK_IsHalted()  returns FALSE (0000ms, 0782ms total)
T2534 001:406 JLINK_IsHalted()  returns FALSE (0000ms, 0782ms total)
T2534 001:408 JLINK_IsHalted()  returns FALSE (0000ms, 0782ms total)
T2534 001:411 JLINK_IsHalted()  returns FALSE (0000ms, 0782ms total)
T2534 001:413 JLINK_IsHalted()  returns FALSE (0000ms, 0782ms total)
T2534 001:415 JLINK_IsHalted()  returns FALSE (0000ms, 0782ms total)
T2534 001:417 JLINK_IsHalted()  returns FALSE (0000ms, 0782ms total)
T2534 001:419 JLINK_IsHalted()  returns FALSE (0000ms, 0782ms total)
T2534 001:421 JLINK_IsHalted()  returns FALSE (0000ms, 0782ms total)
T2534 001:423 JLINK_IsHalted()  returns FALSE (0000ms, 0782ms total)
T2534 001:425 JLINK_IsHalted() -- CPU_ReadMem(2 bytes @ 0x20000000)  returns TRUE (0003ms, 0785ms total)
T2534 001:429 JLINK_ReadReg(R15 (PC))  returns 0x20000000 (0000ms, 0782ms total)
T2534 001:429 JLINK_ClrBPEx(BPHandle = 0x0000000C)  returns 0x00 (0000ms, 0782ms total)
T2534 001:429 JLINK_ReadReg(R0)  returns 0x00000000 (0000ms, 0782ms total)
T2534 001:432 JLINK_WriteMem(0x20000164, 0x0400 Bytes, ...) - Data: 02 F0 2C FE 05 90 4F F0 8E 41 04 98 02 F0 EA FD ... -- CPU_WriteMem(1024 bytes @ 0x20000164)  returns 0x400 (0012ms, 0794ms total)
T2534 001:444 JLINK_WriteReg(R0, 0x08002000)  returns 0x00 (0000ms, 0794ms total)
T2534 001:444 JLINK_WriteReg(R1, 0x00000400)  returns 0x00 (0000ms, 0794ms total)
T2534 001:444 JLINK_WriteReg(R2, 0x20000164)  returns 0x00 (0000ms, 0794ms total)
T2534 001:444 JLINK_WriteReg(R3, 0x00000000)  returns 0x00 (0001ms, 0795ms total)
T2534 001:445 JLINK_WriteReg(R4, 0x00000000)  returns 0x00 (0000ms, 0795ms total)
T2534 001:445 JLINK_WriteReg(R5, 0x00000000)  returns 0x00 (0000ms, 0795ms total)
T2534 001:445 JLINK_WriteReg(R6, 0x00000000)  returns 0x00 (0000ms, 0795ms total)
T2534 001:445 JLINK_WriteReg(R7, 0x00000000)  returns 0x00 (0000ms, 0795ms total)
T2534 001:445 JLINK_WriteReg(R8, 0x00000000)  returns 0x00 (0000ms, 0795ms total)
T2534 001:445 JLINK_WriteReg(R9, 0x20000160)  returns 0x00 (0000ms, 0795ms total)
T2534 001:445 JLINK_WriteReg(R10, 0x00000000)  returns 0x00 (0000ms, 0795ms total)
T2534 001:445 JLINK_WriteReg(R11, 0x00000000)  returns 0x00 (0000ms, 0795ms total)
T2534 001:445 JLINK_WriteReg(R12, 0x00000000)  returns 0x00 (0000ms, 0795ms total)
T2534 001:445 JLINK_WriteReg(R13 (SP), 0x20001000)  returns 0x00 (0000ms, 0795ms total)
T2534 001:445 JLINK_WriteReg(R14, 0x20000001)  returns 0x00 (0000ms, 0795ms total)
T2534 001:445 JLINK_WriteReg(R15 (PC), 0x200000F4)  returns 0x00 (0000ms, 0795ms total)
T2534 001:445 JLINK_WriteReg(XPSR, 0x01000000)  returns 0x00 (0000ms, 0795ms total)
T2534 001:446 JLINK_WriteReg(MSP, 0x20001000)  returns 0x00 (0000ms, 0796ms total)
T2534 001:446 JLINK_WriteReg(PSP, 0x20001000)  returns 0x00 (0000ms, 0796ms total)
T2534 001:446 JLINK_WriteReg(CFBP, 0x00000000)  returns 0x00 (0000ms, 0796ms total)
T2534 001:446 JLINK_SetBPEx(Addr = 0x20000000, Type = 0xFFFFFFF2)  returns 0x0000000D (0000ms, 0796ms total)
T2534 001:446 JLINK_Go() (0002ms, 0798ms total)
T2534 001:448 JLINK_IsHalted()  returns FALSE (0000ms, 0798ms total)
T2534 001:453 JLINK_IsHalted()  returns FALSE (0000ms, 0798ms total)
T2534 001:455 JLINK_IsHalted()  returns FALSE (0000ms, 0798ms total)
T2534 001:490 JLINK_IsHalted() -- CPU_ReadMem(2 bytes @ 0x20000000)  returns TRUE (0004ms, 0802ms total)
T2534 001:494 JLINK_ReadReg(R15 (PC))  returns 0x20000000 (0000ms, 0798ms total)
T2534 001:494 JLINK_ClrBPEx(BPHandle = 0x0000000D)  returns 0x00 (0000ms, 0798ms total)
T2534 001:494 JLINK_ReadReg(R0)  returns 0x00000000 (0000ms, 0798ms total)
T2534 001:495 JLINK_WriteMem(0x20000164, 0x0400 Bytes, ...) - Data: 10 F1 14 0F 0D DA E9 48 00 68 02 F0 27 F9 06 46 ... -- CPU_WriteMem(1024 bytes @ 0x20000164)  returns 0x400 (0012ms, 0810ms total)
T2534 001:507 JLINK_WriteReg(R0, 0x08002400)  returns 0x00 (0001ms, 0811ms total)
T2534 001:508 JLINK_WriteReg(R1, 0x00000400)  returns 0x00 (0000ms, 0811ms total)
T2534 001:508 JLINK_WriteReg(R2, 0x20000164)  returns 0x00 (0000ms, 0811ms total)
T2534 001:508 JLINK_WriteReg(R3, 0x00000000)  returns 0x00 (0000ms, 0811ms total)
T2534 001:508 JLINK_WriteReg(R4, 0x00000000)  returns 0x00 (0000ms, 0811ms total)
T2534 001:508 JLINK_WriteReg(R5, 0x00000000)  returns 0x00 (0000ms, 0811ms total)
T2534 001:508 JLINK_WriteReg(R6, 0x00000000)  returns 0x00 (0000ms, 0811ms total)
T2534 001:508 JLINK_WriteReg(R7, 0x00000000)  returns 0x00 (0000ms, 0811ms total)
T2534 001:508 JLINK_WriteReg(R8, 0x00000000)  returns 0x00 (0000ms, 0811ms total)
T2534 001:508 JLINK_WriteReg(R9, 0x20000160)  returns 0x00 (0000ms, 0811ms total)
T2534 001:508 JLINK_WriteReg(R10, 0x00000000)  returns 0x00 (0000ms, 0811ms total)
T2534 001:508 JLINK_WriteReg(R11, 0x00000000)  returns 0x00 (0000ms, 0811ms total)
T2534 001:508 JLINK_WriteReg(R12, 0x00000000)  returns 0x00 (0000ms, 0811ms total)
T2534 001:509 JLINK_WriteReg(R13 (SP), 0x20001000)  returns 0x00 (0000ms, 0811ms total)
T2534 001:509 JLINK_WriteReg(R14, 0x20000001)  returns 0x00 (0000ms, 0811ms total)
T2534 001:509 JLINK_WriteReg(R15 (PC), 0x200000F4)  returns 0x00 (0000ms, 0811ms total)
T2534 001:509 JLINK_WriteReg(XPSR, 0x01000000)  returns 0x00 (0000ms, 0811ms total)
T2534 001:509 JLINK_WriteReg(MSP, 0x20001000)  returns 0x00 (0000ms, 0811ms total)
T2534 001:509 JLINK_WriteReg(PSP, 0x20001000)  returns 0x00 (0000ms, 0811ms total)
T2534 001:509 JLINK_WriteReg(CFBP, 0x00000000)  returns 0x00 (0000ms, 0811ms total)
T2534 001:509 JLINK_SetBPEx(Addr = 0x20000000, Type = 0xFFFFFFF2)  returns 0x0000000E (0000ms, 0811ms total)
T2534 001:509 JLINK_Go() (0002ms, 0813ms total)
T2534 001:511 JLINK_IsHalted()  returns FALSE (0001ms, 0814ms total)
T2534 001:514 JLINK_IsHalted()  returns FALSE (0000ms, 0813ms total)
T2534 001:516 JLINK_IsHalted()  returns FALSE (0000ms, 0813ms total)
T2534 001:518 JLINK_IsHalted()  returns FALSE (0000ms, 0813ms total)
T2534 001:525 JLINK_IsHalted()  returns FALSE (0000ms, 0813ms total)
T2534 001:527 JLINK_IsHalted()  returns FALSE (0000ms, 0813ms total)
T2534 001:529 JLINK_IsHalted()  returns FALSE (0000ms, 0813ms total)
T2534 001:531 JLINK_IsHalted()  returns FALSE (0000ms, 0813ms total)
T2534 001:533 JLINK_IsHalted()  returns FALSE (0000ms, 0813ms total)
T2534 001:535 JLINK_IsHalted()  returns FALSE (0000ms, 0813ms total)
T2534 001:537 JLINK_IsHalted()  returns FALSE (0000ms, 0813ms total)
T2534 001:539 JLINK_IsHalted()  returns FALSE (0000ms, 0813ms total)
T2534 001:541 JLINK_IsHalted()  returns FALSE (0000ms, 0813ms total)
T2534 001:543 JLINK_IsHalted() -- CPU_ReadMem(2 bytes @ 0x20000000)  returns TRUE (0003ms, 0816ms total)
T2534 001:546 JLINK_ReadReg(R15 (PC))  returns 0x20000000 (0001ms, 0814ms total)
T2534 001:547 JLINK_ClrBPEx(BPHandle = 0x0000000E)  returns 0x00 (0000ms, 0814ms total)
T2534 001:547 JLINK_ReadReg(R0)  returns 0x00000000 (0000ms, 0814ms total)
T2534 001:548 JLINK_WriteMem(0x20000164, 0x0400 Bytes, ...) - Data: 00 80 56 40 9C 03 00 20 00 00 40 40 00 00 40 C0 ... -- CPU_WriteMem(1024 bytes @ 0x20000164)  returns 0x400 (0012ms, 0826ms total)
T2534 001:560 JLINK_WriteReg(R0, 0x08002800)  returns 0x00 (0000ms, 0826ms total)
T2534 001:560 JLINK_WriteReg(R1, 0x00000400)  returns 0x00 (0001ms, 0827ms total)
T2534 001:561 JLINK_WriteReg(R2, 0x20000164)  returns 0x00 (0000ms, 0827ms total)
T2534 001:561 JLINK_WriteReg(R3, 0x00000000)  returns 0x00 (0000ms, 0827ms total)
T2534 001:561 JLINK_WriteReg(R4, 0x00000000)  returns 0x00 (0000ms, 0827ms total)
T2534 001:561 JLINK_WriteReg(R5, 0x00000000)  returns 0x00 (0000ms, 0827ms total)
T2534 001:561 JLINK_WriteReg(R6, 0x00000000)  returns 0x00 (0000ms, 0827ms total)
T2534 001:561 JLINK_WriteReg(R7, 0x00000000)  returns 0x00 (0000ms, 0827ms total)
T2534 001:561 JLINK_WriteReg(R8, 0x00000000)  returns 0x00 (0000ms, 0827ms total)
T2534 001:561 JLINK_WriteReg(R9, 0x20000160)  returns 0x00 (0000ms, 0827ms total)
T2534 001:561 JLINK_WriteReg(R10, 0x00000000)  returns 0x00 (0000ms, 0827ms total)
T2534 001:561 JLINK_WriteReg(R11, 0x00000000)  returns 0x00 (0000ms, 0827ms total)
T2534 001:561 JLINK_WriteReg(R12, 0x00000000)  returns 0x00 (0000ms, 0827ms total)
T2534 001:561 JLINK_WriteReg(R13 (SP), 0x20001000)  returns 0x00 (0000ms, 0827ms total)
T2534 001:561 JLINK_WriteReg(R14, 0x20000001)  returns 0x00 (0001ms, 0828ms total)
T2534 001:562 JLINK_WriteReg(R15 (PC), 0x200000F4)  returns 0x00 (0000ms, 0828ms total)
T2534 001:562 JLINK_WriteReg(XPSR, 0x01000000)  returns 0x00 (0000ms, 0828ms total)
T2534 001:562 JLINK_WriteReg(MSP, 0x20001000)  returns 0x00 (0000ms, 0828ms total)
T2534 001:562 JLINK_WriteReg(PSP, 0x20001000)  returns 0x00 (0000ms, 0828ms total)
T2534 001:562 JLINK_WriteReg(CFBP, 0x00000000)  returns 0x00 (0000ms, 0828ms total)
T2534 001:562 JLINK_SetBPEx(Addr = 0x20000000, Type = 0xFFFFFFF2)  returns 0x0000000F (0000ms, 0828ms total)
T2534 001:562 JLINK_Go() (0002ms, 0830ms total)
T2534 001:564 JLINK_IsHalted()  returns FALSE (0000ms, 0830ms total)
T2534 001:612 JLINK_IsHalted() -- CPU_ReadMem(2 bytes @ 0x20000000)  returns TRUE (0004ms, 0834ms total)
T2534 001:616 JLINK_ReadReg(R15 (PC))  returns 0x20000000 (0000ms, 0830ms total)
T2534 001:616 JLINK_ClrBPEx(BPHandle = 0x0000000F)  returns 0x00 (0000ms, 0830ms total)
T2534 001:616 JLINK_ReadReg(R0)  returns 0x00000000 (0000ms, 0830ms total)
T2534 001:619 JLINK_WriteMem(0x20000164, 0x0400 Bytes, ...) - Data: 50 61 72 61 6D 65 74 65 72 73 00 00 53 61 76 69 ... -- CPU_WriteMem(1024 bytes @ 0x20000164)  returns 0x400 (0012ms, 0842ms total)
T2534 001:631 JLINK_WriteReg(R0, 0x08002C00)  returns 0x00 (0001ms, 0843ms total)
T2534 001:632 JLINK_WriteReg(R1, 0x00000400)  returns 0x00 (0000ms, 0843ms total)
T2534 001:632 JLINK_WriteReg(R2, 0x20000164)  returns 0x00 (0000ms, 0843ms total)
T2534 001:632 JLINK_WriteReg(R3, 0x00000000)  returns 0x00 (0000ms, 0843ms total)
